
T3910 000:659 SEGGER J-Link V4.90 Log File (0001ms, 0268ms total)
T3910 000:659 DLL Compiled: Jul 28 2014 10:35:20 (0001ms, 0268ms total)
T3910 000:659 Logging started @ 2018-04-20 21:02 (0002ms, 0269ms total)
T3910 000:661 JLINK_SetWarnOutHandler(...) (0000ms, 0269ms total)
T3910 000:661 JLINK_OpenEx(...)
Firmware: J-Link ARM-OB STM32 compiled Aug 22 2012 19:52:04
Hardware: V7.00
S/N: 20090928
Feature(s): RDI,FlashDL,FlashBP,JFlash,GDB  returns O.K. (0263ms, 0532ms total)
T3910 000:924 JLINK_SetErrorOutHandler(...) (0000ms, 0532ms total)
T3910 000:924 JLINK_ExecCommand("ProjectFile = "C:\Users\b1101\Documents\GitHub\NJURMaster\NJURMaster\JLinkSettings.ini"", ...)  returns 0x00 (0001ms, 0533ms total)
T3910 000:925 JLINK_ExecCommand("Device = STM32F427II", ...)Device "STM32F427II" selected (2048 KB flash, 192 KB RAM).  returns 0x00 (0002ms, 0535ms total)
T3910 000:927 JLINK_ExecCommand("DisableConnectionTimeout", ...)  returns 0x01 (0000ms, 0535ms total)
T3910 000:927 JLINK_GetHardwareVersion()  returns 0x11170 (0000ms, 0535ms total)
T3910 000:927 JLINK_GetDLLVersion()  returns 49000 (0000ms, 0535ms total)
T3910 000:927 JLINK_GetFirmwareString(...) (0000ms, 0535ms total)
T3910 000:928 JLINK_GetDLLVersion()  returns 49000 (0000ms, 0535ms total)
T3910 000:928 JLINK_GetCompileDateTime() (0000ms, 0535ms total)
T3910 000:928 JLINK_GetFirmwareString(...) (0000ms, 0535ms total)
T3910 000:929 JLINK_GetHardwareVersion()  returns 0x11170 (0000ms, 0535ms total)
T3910 000:930 JLINK_TIF_Select(JLINKARM_TIF_SWD)  returns 0x00 (0000ms, 0535ms total)
T3910 000:930 JLINK_SetSpeed(5000) (0000ms, 0535ms total)
T3910 000:930 JLINK_GetId() >0x108 TIF>Found SWD-DP with ID 0x2BA01477 >0x0D TIF> >0x28 TIF> >0x0D TIF> >0x28 TIF> >0x0D TIF> >0x21 TIF> >0x0D TIF> >0x28 TIF> >0x0D TIF> >0x28 TIF> >0x0D TIF> >0x28 TIF> >0x0D TIF> >0x21 TIF> >0x0D TIF> >0x21 TIF> >0x0D TIF> >0x28 TIF> >0x0D TIF> >0x21 TIF> >0x0D TIF> >0x21 TIF> >0x0D TIF> >0x28 TIF> >0x0D TIF> >0x28 TIF> >0x0D TIF> >0x28 TIF> >0x0D TIF> >0x21 TIF> >0x0D TIF> >0x21 TIF> >0x0D TIF> >0x28 TIF> >0x0D TIF> >0x28 TIF> >0x108 TIF>Found SWD-DP with ID 0x2BA01477
 >0x0D TIF> >0x21 TIF> >0x0D TIF> >0x28 TIF> >0x0D TIF> >0x28 TIF> >0x0D TIF> >0x21 TIF> >0x0D TIF> >0x28 TIF> >0x0D TIF> >0x21 TIF> >0x0D TIF> >0x21 TIF> >0x0D TIF> >0x21 TIF> >0x0D TIF> >0x21 TIF> >0x0D TIF> >0x28 TIF> >0x0D TIF> >0x28 TIF> >0x0D TIF> >0x21 TIF> >0x0D TIF> >0x28 TIF> >0x0D TIF> >0x28 TIF> >0x0D TIF> >0x28 TIF> >0x0D TIF> >0x21 TIF> >0x0D TIF> >0x21 TIF> >0x0D TIF> >0x28 TIF> >0x0D TIF> >0x21 TIF> >0x0D TIF> >0x21 TIF>Found Cortex-M4 r0p1, Little endian.
 -- CPU_WriteMem(4 bytes @ 0xE0002000) -- CPU_ReadMem(4 bytes @ 0xE000EDF0) -- CPU_WriteMem(4 bytes @ 0xE000EDF0) -- CPU_ReadMem(4 bytes @ 0xE0002000)FPUnit: 6 code (BP) slots and 2 literal slots -- CPU_ReadMem(4 bytes @ 0xE000EDFC) -- CPU_WriteMem(4 bytes @ 0xE000EDFC) -- CPU_ReadMem(4 bytes @ 0xE0001000) -- CPU_WriteMem(4 bytes @ 0xE0001000) -- CPU_ReadMem(4 bytes @ 0xE00FF010)TPIU fitted. -- CPU_ReadMem(4 bytes @ 0xE00FF014)ETM fitted. -- CPU_ReadMem(4 bytes @ 0xE00FF018) >0x0D TIF> >0x21 TIF>
  returns 0x2BA01477 (0029ms, 0564ms total)
T3910 000:959 JLINK_GetDLLVersion()  returns 49000 (0000ms, 0564ms total)
T3910 000:959 JLINK_CORE_GetFound()  returns 0xE0000FF (0000ms, 0564ms total)
T3910 000:960 JLINK_ReadMem (0xE00FF000, 0x0020 Bytes, ...) -- CPU is running -- CPU_ReadMem(32 bytes @ 0xE00FF000) - Data: 03 F0 F0 FF 03 20 F0 FF 03 30 F0 FF 03 10 F0 FF ...  returns 0x00 (0001ms, 0565ms total)
T3910 000:961 JLINK_ReadMem (0xE000EFF0, 0x0010 Bytes, ...) -- CPU is running -- CPU_ReadMem(16 bytes @ 0xE000EFF0) - Data: 0D 00 00 00 E0 00 00 00 05 00 00 00 B1 00 00 00  returns 0x00 (0000ms, 0565ms total)
T3910 000:961 JLINK_ReadMem (0xE000EFD0, 0x0020 Bytes, ...) -- CPU is running -- CPU_ReadMem(32 bytes @ 0xE000EFD0) - Data: 04 00 00 00 00 00 00 00 00 00 00 00 00 00 00 00 ...  returns 0x00 (0001ms, 0566ms total)
T3910 000:962 JLINK_ReadMem (0xE0001FF0, 0x0010 Bytes, ...) -- CPU is running -- CPU_ReadMem(16 bytes @ 0xE0001FF0) - Data: 0D 00 00 00 E0 00 00 00 05 00 00 00 B1 00 00 00  returns 0x00 (0001ms, 0567ms total)
T3910 000:963 JLINK_ReadMem (0xE0001FD0, 0x0020 Bytes, ...) -- CPU is running -- CPU_ReadMem(32 bytes @ 0xE0001FD0) - Data: 04 00 00 00 00 00 00 00 00 00 00 00 00 00 00 00 ...  returns 0x00 (0001ms, 0568ms total)
T3910 000:964 JLINK_ReadMem (0xE0002FF0, 0x0010 Bytes, ...) -- CPU is running -- CPU_ReadMem(16 bytes @ 0xE0002FF0) - Data: 0D 00 00 00 E0 00 00 00 05 00 00 00 B1 00 00 00  returns 0x00 (0000ms, 0568ms total)
T3910 000:964 JLINK_ReadMem (0xE0002FD0, 0x0020 Bytes, ...) -- CPU is running -- CPU_ReadMem(32 bytes @ 0xE0002FD0) - Data: 04 00 00 00 00 00 00 00 00 00 00 00 00 00 00 00 ...  returns 0x00 (0001ms, 0569ms total)
T3910 000:965 JLINK_ReadMem (0xE0000FF0, 0x0010 Bytes, ...) -- CPU is running -- CPU_ReadMem(16 bytes @ 0xE0000FF0) - Data: 0D 00 00 00 E0 00 00 00 05 00 00 00 B1 00 00 00  returns 0x00 (0001ms, 0570ms total)
T3910 000:966 JLINK_ReadMem (0xE0000FD0, 0x0020 Bytes, ...) -- CPU is running -- CPU_ReadMem(32 bytes @ 0xE0000FD0) - Data: 04 00 00 00 00 00 00 00 00 00 00 00 00 00 00 00 ...  returns 0x00 (0000ms, 0570ms total)
T3910 000:967 JLINK_ReadMem (0xE0040FF0, 0x0010 Bytes, ...) -- CPU is running -- CPU_ReadMem(16 bytes @ 0xE0040FF0) - Data: 0D 00 00 00 90 00 00 00 05 00 00 00 B1 00 00 00  returns 0x00 (0000ms, 0571ms total)
T3910 000:967 JLINK_ReadMem (0xE0040FD0, 0x0020 Bytes, ...) -- CPU is running -- CPU_ReadMem(32 bytes @ 0xE0040FD0) - Data: 04 00 00 00 00 00 00 00 00 00 00 00 00 00 00 00 ...  returns 0x00 (0001ms, 0572ms total)
T3910 000:968 JLINK_ReadMem (0xE0041FF0, 0x0010 Bytes, ...) -- CPU is running -- CPU_ReadMem(16 bytes @ 0xE0041FF0) - Data: 0D 00 00 00 90 00 00 00 05 00 00 00 B1 00 00 00  returns 0x00 (0001ms, 0573ms total)
T3910 000:969 JLINK_ReadMem (0xE0041FD0, 0x0020 Bytes, ...) -- CPU is running -- CPU_ReadMem(32 bytes @ 0xE0041FD0) - Data: 04 00 00 00 00 00 00 00 00 00 00 00 00 00 00 00 ...  returns 0x00 (0000ms, 0573ms total)
T3910 000:969 JLINK_ReadMemU32(0xE000EF40, 0x0001 Items, ...) -- CPU is running -- CPU_ReadMem(4 bytes @ 0xE000EF40) - Data: 21 00 11 10  returns 0x01 (0001ms, 0574ms total)
T3910 000:970 JLINK_ReadMemU32(0xE000EF44, 0x0001 Items, ...) -- CPU is running -- CPU_ReadMem(4 bytes @ 0xE000EF44) - Data: 11 00 00 11  returns 0x01 (0000ms, 0574ms total)
T3910 000:970 JLINK_ReadMemU32(0xE000ED00, 0x0001 Items, ...) -- CPU is running -- CPU_ReadMem(4 bytes @ 0xE000ED00) - Data: 41 C2 0F 41  returns 0x01 (0001ms, 0575ms total)
T3910 000:971 JLINK_SetResetType(JLINKARM_RESET_TYPE_NORMAL)  returns JLINKARM_RESET_TYPE_NORMAL (0000ms, 0575ms total)
T3910 000:971 JLINK_Reset() -- CPU is running -- CPU_WriteMem(4 bytes @ 0xE000EDF0) -- CPU is running -- CPU_WriteMem(4 bytes @ 0xE000EDFC) >0x35 TIF> -- CPU is running -- CPU_WriteMem(4 bytes @ 0xE000ED0C) -- CPU is running -- CPU_ReadMem(4 bytes @ 0xE000EDF0) -- CPU is running -- CPU_ReadMem(4 bytes @ 0xE000EDF0) -- CPU is running -- CPU_WriteMem(4 bytes @ 0xE000EDF0) -- CPU is running -- CPU_WriteMem(4 bytes @ 0xE000EDFC) -- CPU is running -- CPU_ReadMem(4 bytes @ 0xE000EDF0)
 -- CPU_WriteMem(4 bytes @ 0xE0002000) -- CPU_ReadMem(4 bytes @ 0xE000EDFC) -- CPU_ReadMem(4 bytes @ 0xE0001000) (0018ms, 0593ms total)
T3910 000:989 JLINK_ReadReg(R15 (PC))  returns 0x080001C0 (0000ms, 0593ms total)
T3910 000:989 JLINK_ReadReg(XPSR)  returns 0x01000000 (0000ms, 0593ms total)
T3910 000:989 JLINK_Halt()  returns 0x00 (0000ms, 0593ms total)
T3910 000:989 JLINK_IsHalted()  returns TRUE (0000ms, 0593ms total)
T3910 000:989 JLINK_ReadMemU32(0xE000EDF0, 0x0001 Items, ...) -- CPU_ReadMem(4 bytes @ 0xE000EDF0) - Data: 03 00 03 00  returns 0x01 (0000ms, 0593ms total)
T3910 000:989 JLINK_WriteU32(0xE000EDF0, 0xA05F0003) -- CPU_WriteMem(4 bytes @ 0xE000EDF0)  returns 0x00 (0001ms, 0594ms total)
T3910 000:990 JLINK_WriteU32(0xE000EDFC, 0x01000000) -- CPU_WriteMem(4 bytes @ 0xE000EDFC)  returns 0x00 (0000ms, 0594ms total)
T3910 000:991 JLINK_GetHWStatus(...)  returns 0x00 (0001ms, 0595ms total)
T3910 000:992 JLINK_GetNumBPUnits(Type = 0xFFFFFF00)  returns 0x06 (0000ms, 0595ms total)
T3910 000:992 JLINK_GetNumBPUnits(Type = 0xF0)  returns 0x2000 (0000ms, 0595ms total)
T3910 000:992 JLINK_GetNumWPUnits()  returns 0x04 (0000ms, 0595ms total)
T3910 000:993 JLINK_GetSpeed()  returns 0xFA0 (0000ms, 0595ms total)
T3910 000:994 JLINK_ReadMemU32(0xE000E004, 0x0001 Items, ...) -- CPU_ReadMem(4 bytes @ 0xE000E004) - Data: 02 00 00 00  returns 0x01 (0000ms, 0595ms total)
T3910 000:994 JLINK_ReadMemU32(0xE000E004, 0x0001 Items, ...) -- CPU_ReadMem(4 bytes @ 0xE000E004) - Data: 02 00 00 00  returns 0x01 (0001ms, 0596ms total)
T3910 000:995 JLINK_WriteMem(0xE0001000, 0x001C Bytes, ...) - Data: 01 00 00 00 00 00 00 00 00 00 00 00 00 00 00 00 ... -- CPU_WriteMem(28 bytes @ 0xE0001000)  returns 0x1C (0001ms, 0597ms total)
T3910 000:996 JLINK_ReadMem (0xE0001000, 0x001C Bytes, ...) -- CPU_ReadMem(28 bytes @ 0xE0001000) - Data: 01 00 00 40 00 00 00 00 00 00 00 00 00 00 00 00 ...  returns 0x00 (0000ms, 0597ms total)
T3910 000:996 JLINK_ReadReg(R15 (PC))  returns 0x080001C0 (0000ms, 0597ms total)
T3910 000:996 JLINK_ReadReg(XPSR)  returns 0x01000000 (0000ms, 0597ms total)
T3910 001:148 JLINK_SetResetType(JLINKARM_RESET_TYPE_NORMAL)  returns JLINKARM_RESET_TYPE_NORMAL (0000ms, 0597ms total)
T3910 001:148 JLINK_Reset() -- CPU_WriteMem(4 bytes @ 0xE000EDF0) -- CPU_WriteMem(4 bytes @ 0xE000EDFC) >0x35 TIF> -- CPU_WriteMem(4 bytes @ 0xE000ED0C) -- CPU_ReadMem(4 bytes @ 0xE000EDF0) -- CPU_ReadMem(4 bytes @ 0xE000EDF0) -- CPU_WriteMem(4 bytes @ 0xE000EDF0) -- CPU_WriteMem(4 bytes @ 0xE000EDFC) -- CPU is running -- CPU_ReadMem(4 bytes @ 0xE000EDF0) -- CPU_WriteMem(4 bytes @ 0xE0002000) -- CPU_ReadMem(4 bytes @ 0xE000EDFC) -- CPU_ReadMem(4 bytes @ 0xE0001000) (0023ms, 0620ms total)
T3910 001:172 JLINK_ReadReg(R15 (PC))  returns 0x080001C0 (0000ms, 0621ms total)
T3910 001:172 JLINK_ReadReg(XPSR)  returns 0x01000000 (0000ms, 0621ms total)
T3910 001:172 JLINK_ReadMemU32(0xE0001004, 0x0001 Items, ...) -- CPU_ReadMem(4 bytes @ 0xE0001004) - Data: DD EF 00 00  returns 0x01 (0001ms, 0622ms total)
T3910 001:590 JLINK_ReadMem (0x080001C0, 0x003C Bytes, ...) -- CPU_ReadMem(64 bytes @ 0x080001C0) -- Updating C cache (64 bytes @ 0x080001C0) -- Read from C cache (60 bytes @ 0x080001C0) - Data: 06 48 80 47 06 48 00 47 FE E7 FE E7 FE E7 FE E7 ...  returns 0x00 (0001ms, 0623ms total)
T3910 003:084 JLINK_ReadMem (0x00000000, 0x017A Bytes, ...) -- CPU_ReadMem(4 bytes @ 0x00000004) -- CPU_ReadMem(384 bytes @ 0x08000000) -- Updating C cache (384 bytes @ 0x08000000) -- Read from C cache (378 bytes @ 0x08000000) - Data: 60 17 00 20 C1 01 00 08 75 52 00 08 FD 44 00 08 ...  returns 0x00 (0006ms, 0629ms total)
T3910 003:747 JLINK_ReadMem (0x20000C04, 0x0004 Bytes, ...) -- CPU_ReadMem(64 bytes @ 0x20000C00) -- Updating C cache (64 bytes @ 0x20000C00) -- Read from C cache (4 bytes @ 0x20000C04) - Data: 00 90 7B BF  returns 0x00 (0001ms, 0630ms total)
T3910 003:750 JLINK_ReadMem (0x20000E74, 0x0004 Bytes, ...) -- CPU_ReadMem(64 bytes @ 0x20000E40) -- Updating C cache (64 bytes @ 0x20000E40) -- Read from C cache (4 bytes @ 0x20000E74) - Data: 00 00 00 00  returns 0x00 (0001ms, 0631ms total)
T2BD8 003:780 JLINK_SetBPEx(Addr = 0x08009B2C, Type = 0xFFFFFFF2)  returns 0x00000001 (0000ms, 0631ms total)
T2BD8 003:780 JLINK_Go() -- CPU_WriteMem(4 bytes @ 0xE0002000) -- CPU_WriteMem(4 bytes @ 0xE0002008) -- CPU_WriteMem(4 bytes @ 0xE000200C) -- CPU_WriteMem(4 bytes @ 0xE0002010) -- CPU_WriteMem(4 bytes @ 0xE0002014) -- CPU_WriteMem(4 bytes @ 0xE0002018) -- CPU_WriteMem(4 bytes @ 0xE000201C) -- CPU_WriteMem(4 bytes @ 0xE0001004) (0005ms, 0636ms total)
T2BD8 003:886 JLINK_IsHalted()  returns TRUE (0003ms, 0639ms total)
T2BD8 003:889 JLINK_Halt()  returns 0x00 (0000ms, 0636ms total)
T2BD8 003:889 JLINK_IsHalted()  returns TRUE (0000ms, 0636ms total)
T2BD8 003:889 JLINK_IsHalted()  returns TRUE (0000ms, 0636ms total)
T2BD8 003:889 JLINK_IsHalted()  returns TRUE (0000ms, 0636ms total)
T2BD8 003:889 JLINK_ReadReg(R15 (PC))  returns 0x08009B2C (0000ms, 0636ms total)
T2BD8 003:889 JLINK_ReadReg(XPSR)  returns 0x61000000 (0000ms, 0636ms total)
T2BD8 003:889 JLINK_ClrBPEx(BPHandle = 0x00000001)  returns 0x00 (0000ms, 0636ms total)
T2BD8 003:889 JLINK_ReadMemU32(0xE000ED30, 0x0001 Items, ...) -- CPU_ReadMem(4 bytes @ 0xE000ED30) - Data: 03 00 00 00  returns 0x01 (0000ms, 0636ms total)
T2BD8 003:889 JLINK_ReadMemU32(0xE0001028, 0x0001 Items, ...) -- CPU_ReadMem(4 bytes @ 0xE0001028) - Data: 00 00 00 00  returns 0x01 (0001ms, 0637ms total)
T2BD8 003:890 JLINK_ReadMemU32(0xE0001038, 0x0001 Items, ...) -- CPU_ReadMem(4 bytes @ 0xE0001038) - Data: 00 02 00 00  returns 0x01 (0000ms, 0637ms total)
T2BD8 003:890 JLINK_ReadMemU32(0xE0001048, 0x0001 Items, ...) -- CPU_ReadMem(4 bytes @ 0xE0001048) - Data: 00 00 00 00  returns 0x01 (0001ms, 0638ms total)
T2BD8 003:891 JLINK_ReadMemU32(0xE0001058, 0x0001 Items, ...) -- CPU_ReadMem(4 bytes @ 0xE0001058) - Data: 00 00 00 00  returns 0x01 (0000ms, 0638ms total)
T2BD8 003:891 JLINK_ReadReg(R0)  returns 0x08009B2D (0000ms, 0638ms total)
T2BD8 003:891 JLINK_ReadReg(R1)  returns 0x20001760 (0000ms, 0638ms total)
T2BD8 003:891 JLINK_ReadReg(R2)  returns 0x00000000 (0000ms, 0638ms total)
T2BD8 003:892 JLINK_ReadReg(R3)  returns 0x080091D9 (0000ms, 0639ms total)
T2BD8 003:892 JLINK_ReadReg(R4)  returns 0x0800A210 (0000ms, 0639ms total)
T2BD8 003:892 JLINK_ReadReg(R5)  returns 0x0800A210 (0000ms, 0639ms total)
T2BD8 003:892 JLINK_ReadReg(R6)  returns 0x00000000 (0000ms, 0639ms total)
T2BD8 003:892 JLINK_ReadReg(R7)  returns 0x00000000 (0000ms, 0639ms total)
T2BD8 003:892 JLINK_ReadReg(R8)  returns 0x00000000 (0000ms, 0639ms total)
T2BD8 003:892 JLINK_ReadReg(R9)  returns 0x00000000 (0000ms, 0639ms total)
T2BD8 003:892 JLINK_ReadReg(R10)  returns 0x00000000 (0000ms, 0639ms total)
T2BD8 003:892 JLINK_ReadReg(R11)  returns 0x00000000 (0000ms, 0639ms total)
T2BD8 003:892 JLINK_ReadReg(R12)  returns 0x00000000 (0000ms, 0639ms total)
T2BD8 003:892 JLINK_ReadReg(R13 (SP))  returns 0x20001760 (0000ms, 0639ms total)
T2BD8 003:892 JLINK_ReadReg(R14)  returns 0x080008D5 (0000ms, 0639ms total)
T2BD8 003:892 JLINK_ReadReg(R15 (PC))  returns 0x08009B2C (0000ms, 0639ms total)
T2BD8 003:892 JLINK_ReadReg(XPSR)  returns 0x61000000 (0000ms, 0639ms total)
T2BD8 003:892 JLINK_ReadReg(MSP)  returns 0x20001760 (0000ms, 0639ms total)
T2BD8 003:892 JLINK_ReadReg(PSP)  returns 0x00000000 (0000ms, 0639ms total)
T2BD8 003:892 JLINK_ReadReg(CFBP)  returns 0x00000000 (0000ms, 0639ms total)
T2BD8 003:892 JLINK_ReadReg(FPSCR)  returns 0x00000000 (0005ms, 0644ms total)
T2BD8 003:897 JLINK_ReadReg(FPS0)  returns 0x00000000 (0000ms, 0644ms total)
T2BD8 003:897 JLINK_ReadReg(FPS1)  returns 0x00000000 (0000ms, 0644ms total)
T2BD8 003:897 JLINK_ReadReg(FPS2)  returns 0x00000000 (0000ms, 0644ms total)
T2BD8 003:897 JLINK_ReadReg(FPS3)  returns 0x00000000 (0000ms, 0644ms total)
T2BD8 003:897 JLINK_ReadReg(FPS4)  returns 0x00000000 (0000ms, 0644ms total)
T2BD8 003:897 JLINK_ReadReg(FPS5)  returns 0x00000000 (0000ms, 0644ms total)
T2BD8 003:897 JLINK_ReadReg(FPS6)  returns 0x00000000 (0000ms, 0644ms total)
T2BD8 003:897 JLINK_ReadReg(FPS7)  returns 0x00000000 (0000ms, 0644ms total)
T2BD8 003:897 JLINK_ReadReg(FPS8)  returns 0x00000000 (0000ms, 0644ms total)
T2BD8 003:897 JLINK_ReadReg(FPS9)  returns 0x00000000 (0000ms, 0644ms total)
T2BD8 003:897 JLINK_ReadReg(FPS10)  returns 0x00000000 (0000ms, 0644ms total)
T2BD8 003:897 JLINK_ReadReg(FPS11)  returns 0x00000000 (0000ms, 0644ms total)
T2BD8 003:897 JLINK_ReadReg(FPS12)  returns 0x00000000 (0000ms, 0644ms total)
T2BD8 003:897 JLINK_ReadReg(FPS13)  returns 0x00000000 (0000ms, 0644ms total)
T2BD8 003:897 JLINK_ReadReg(FPS14)  returns 0x00000000 (0000ms, 0644ms total)
T2BD8 003:897 JLINK_ReadReg(FPS15)  returns 0x00000000 (0000ms, 0644ms total)
T2BD8 003:897 JLINK_ReadReg(FPS16)  returns 0x00000000 (0000ms, 0644ms total)
T2BD8 003:897 JLINK_ReadReg(FPS17)  returns 0x00000000 (0000ms, 0644ms total)
T2BD8 003:897 JLINK_ReadReg(FPS18)  returns 0x00000000 (0000ms, 0644ms total)
T2BD8 003:897 JLINK_ReadReg(FPS19)  returns 0x00000000 (0000ms, 0644ms total)
T2BD8 003:897 JLINK_ReadReg(FPS20)  returns 0x00000000 (0000ms, 0644ms total)
T2BD8 003:897 JLINK_ReadReg(FPS21)  returns 0x00000000 (0001ms, 0645ms total)
T2BD8 003:898 JLINK_ReadReg(FPS22)  returns 0x00000000 (0000ms, 0645ms total)
T2BD8 003:898 JLINK_ReadReg(FPS23)  returns 0x00000000 (0000ms, 0645ms total)
T2BD8 003:898 JLINK_ReadReg(FPS24)  returns 0x00000000 (0000ms, 0645ms total)
T2BD8 003:898 JLINK_ReadReg(FPS25)  returns 0x00000000 (0000ms, 0645ms total)
T2BD8 003:898 JLINK_ReadReg(FPS26)  returns 0x00000000 (0000ms, 0645ms total)
T2BD8 003:898 JLINK_ReadReg(FPS27)  returns 0x00000000 (0000ms, 0645ms total)
T2BD8 003:898 JLINK_ReadReg(FPS28)  returns 0x00000000 (0000ms, 0645ms total)
T2BD8 003:898 JLINK_ReadReg(FPS29)  returns 0x00000000 (0000ms, 0645ms total)
T2BD8 003:898 JLINK_ReadReg(FPS30)  returns 0x00000000 (0000ms, 0645ms total)
T2BD8 003:898 JLINK_ReadReg(FPS31)  returns 0x00000000 (0000ms, 0645ms total)
T3910 003:901 JLINK_ReadMemU32(0xE0001004, 0x0001 Items, ...) -- CPU_ReadMem(4 bytes @ 0xE0001004) - Data: 44 69 00 00  returns 0x01 (0001ms, 0646ms total)
T3910 003:904 JLINK_ReadMem (0x08009B2C, 0x003C Bytes, ...) -- CPU_ReadMem(128 bytes @ 0x08009B00) -- Updating C cache (128 bytes @ 0x08009B00) -- Read from C cache (60 bytes @ 0x08009B2C) - Data: F8 F7 22 F9 F8 F7 D4 F8 0B E0 06 48 00 78 20 B1 ...  returns 0x00 (0002ms, 0648ms total)
T3910 057:929 JLINK_ReadMem (0x08005484, 0x003C Bytes, ...) -- CPU_ReadMem(64 bytes @ 0x08005480) -- Updating C cache (64 bytes @ 0x08005480) -- Read from C cache (60 bytes @ 0x08005484) - Data: 01 20 88 70 18 20 C8 70 18 22 69 46 0B 48 00 1D ...  returns 0x00 (0002ms, 0650ms total)
T3910 070:061 JLINK_ReadMem (0x200000EC, 0x0004 Bytes, ...) -- CPU_ReadMem(64 bytes @ 0x200000C0) -- Updating C cache (64 bytes @ 0x200000C0) -- Read from C cache (4 bytes @ 0x200000EC) - Data: 00 00 00 00  returns 0x00 (0002ms, 0652ms total)
T3910 074:655 JLINK_ReadMem (0x20000E34, 0x0004 Bytes, ...) -- CPU_ReadMem(64 bytes @ 0x20000E00) -- Updating C cache (64 bytes @ 0x20000E00) -- Read from C cache (4 bytes @ 0x20000E34) - Data: 00 00 00 00  returns 0x00 (0002ms, 0654ms total)
T3910 074:657 JLINK_ReadMem (0x20000E38, 0x0004 Bytes, ...) -- Read from C cache (4 bytes @ 0x20000E38) - Data: 00 00 00 00  returns 0x00 (0000ms, 0654ms total)
T3910 074:657 JLINK_ReadMem (0x20000E3C, 0x0004 Bytes, ...) -- Read from C cache (4 bytes @ 0x20000E3C) - Data: 00 00 00 00  returns 0x00 (0000ms, 0654ms total)
T3910 074:657 JLINK_ReadMem (0x20000E40, 0x0004 Bytes, ...) -- CPU_ReadMem(64 bytes @ 0x20000E40) -- Updating C cache (64 bytes @ 0x20000E40) -- Read from C cache (4 bytes @ 0x20000E40) - Data: 00 00 00 00  returns 0x00 (0002ms, 0656ms total)
T3910 074:659 JLINK_ReadMem (0x20000E44, 0x0004 Bytes, ...) -- Read from C cache (4 bytes @ 0x20000E44) - Data: 00 00 00 00  returns 0x00 (0000ms, 0656ms total)
T3910 074:659 JLINK_ReadMem (0x20000E48, 0x0001 Bytes, ...) -- Read from C cache (1 bytes @ 0x20000E48) - Data: 00  returns 0x00 (0000ms, 0656ms total)
T3910 074:659 JLINK_ReadMem (0x20000E4C, 0x0004 Bytes, ...) -- Read from C cache (4 bytes @ 0x20000E4C) - Data: 00 00 00 00  returns 0x00 (0000ms, 0656ms total)
T3910 074:660 JLINK_ReadMem (0x20000E50, 0x0004 Bytes, ...) -- Read from C cache (4 bytes @ 0x20000E50) - Data: 00 00 00 00  returns 0x00 (0000ms, 0657ms total)
T3910 074:660 JLINK_ReadMem (0x20000E54, 0x0004 Bytes, ...) -- Read from C cache (4 bytes @ 0x20000E54) - Data: 00 00 00 00  returns 0x00 (0000ms, 0657ms total)
T3910 074:660 JLINK_ReadMem (0x20000E58, 0x0004 Bytes, ...) -- Read from C cache (4 bytes @ 0x20000E58) - Data: 00 00 00 00  returns 0x00 (0000ms, 0657ms total)
T3910 074:660 JLINK_ReadMem (0x20000E5C, 0x0004 Bytes, ...) -- Read from C cache (4 bytes @ 0x20000E5C) - Data: 00 00 00 00  returns 0x00 (0000ms, 0657ms total)
T3910 074:660 JLINK_ReadMem (0x20000E60, 0x0004 Bytes, ...) -- Read from C cache (4 bytes @ 0x20000E60) - Data: 00 00 00 00  returns 0x00 (0000ms, 0657ms total)
T3910 074:660 JLINK_ReadMem (0x20000E64, 0x0004 Bytes, ...) -- Read from C cache (4 bytes @ 0x20000E64) - Data: 00 00 00 00  returns 0x00 (0001ms, 0658ms total)
T3910 074:661 JLINK_ReadMem (0x20000E68, 0x0004 Bytes, ...) -- Read from C cache (4 bytes @ 0x20000E68) - Data: 00 00 00 00  returns 0x00 (0000ms, 0658ms total)
T3910 074:661 JLINK_ReadMem (0x20000E6C, 0x0004 Bytes, ...) -- Read from C cache (4 bytes @ 0x20000E6C) - Data: 00 00 00 00  returns 0x00 (0000ms, 0658ms total)
T3910 074:661 JLINK_ReadMem (0x20000E70, 0x0004 Bytes, ...) -- Read from C cache (4 bytes @ 0x20000E70) - Data: 00 00 00 00  returns 0x00 (0000ms, 0658ms total)
T3910 074:661 JLINK_ReadMem (0x20000E74, 0x0004 Bytes, ...) -- Read from C cache (4 bytes @ 0x20000E74) - Data: 00 00 00 00  returns 0x00 (0000ms, 0658ms total)
T3910 079:029 JLINK_ReadMem (0x200000E8, 0x0004 Bytes, ...) -- Read from C cache (4 bytes @ 0x200000E8) - Data: 00 00 00 00  returns 0x00 (0001ms, 0659ms total)
T3910 086:357 JLINK_ReadMem (0x20000098, 0x0004 Bytes, ...) -- CPU_ReadMem(64 bytes @ 0x20000080) -- Updating C cache (64 bytes @ 0x20000080) -- Read from C cache (4 bytes @ 0x20000098) - Data: 00 00 00 00  returns 0x00 (0002ms, 0661ms total)
T3910 094:013 JLINK_ReadMem (0x2000009C, 0x0004 Bytes, ...) -- Read from C cache (4 bytes @ 0x2000009C) - Data: 00 00 00 00  returns 0x00 (0001ms, 0662ms total)
T3910 106:961 JLINK_ReadMem (0x08006B00, 0x003C Bytes, ...) -- CPU_ReadMem(64 bytes @ 0x08006B00) -- Updating C cache (64 bytes @ 0x08006B00) -- Read from C cache (60 bytes @ 0x08006B00) - Data: 12 21 07 48 1E 30 FF F7 AD FB 00 20 FD F7 7A FA ...  returns 0x00 (0002ms, 0664ms total)
T3910 123:345 JLINK_ReadMem (0x20001034, 0x0001 Bytes, ...) -- CPU_ReadMem(64 bytes @ 0x20001000) -- Updating C cache (64 bytes @ 0x20001000) -- Read from C cache (1 bytes @ 0x20001034) - Data: 00  returns 0x00 (0002ms, 0666ms total)
T3910 123:347 JLINK_ReadMem (0x20001035, 0x0001 Bytes, ...) -- Read from C cache (1 bytes @ 0x20001035) - Data: 00  returns 0x00 (0000ms, 0666ms total)
T3910 123:347 JLINK_ReadMem (0x20001036, 0x0001 Bytes, ...) -- Read from C cache (1 bytes @ 0x20001036) - Data: 00  returns 0x00 (0000ms, 0666ms total)
T3910 123:347 JLINK_ReadMem (0x20001037, 0x0001 Bytes, ...) -- Read from C cache (1 bytes @ 0x20001037) - Data: 00  returns 0x00 (0000ms, 0666ms total)
T3910 123:348 JLINK_ReadMem (0x20001038, 0x0001 Bytes, ...) -- Read from C cache (1 bytes @ 0x20001038) - Data: 00  returns 0x00 (0000ms, 0666ms total)
T3910 123:348 JLINK_ReadMem (0x20001039, 0x0001 Bytes, ...) -- Read from C cache (1 bytes @ 0x20001039) - Data: 00  returns 0x00 (0000ms, 0666ms total)
T3910 123:348 JLINK_ReadMem (0x2000103A, 0x0001 Bytes, ...) -- Read from C cache (1 bytes @ 0x2000103A) - Data: 00  returns 0x00 (0000ms, 0666ms total)
T3910 123:348 JLINK_ReadMem (0x2000103B, 0x0001 Bytes, ...) -- Read from C cache (1 bytes @ 0x2000103B) - Data: 00  returns 0x00 (0000ms, 0666ms total)
T3910 123:348 JLINK_ReadMem (0x2000103C, 0x0001 Bytes, ...) -- Read from C cache (1 bytes @ 0x2000103C) - Data: 00  returns 0x00 (0000ms, 0666ms total)
T3910 123:348 JLINK_ReadMem (0x2000103D, 0x0001 Bytes, ...) -- Read from C cache (1 bytes @ 0x2000103D) - Data: 00  returns 0x00 (0001ms, 0667ms total)
T3910 123:349 JLINK_ReadMem (0x2000103E, 0x0001 Bytes, ...) -- Read from C cache (1 bytes @ 0x2000103E) - Data: 00  returns 0x00 (0000ms, 0667ms total)
T3910 123:349 JLINK_ReadMem (0x2000103F, 0x0001 Bytes, ...) -- Read from C cache (1 bytes @ 0x2000103F) - Data: 00  returns 0x00 (0000ms, 0667ms total)
T3910 123:349 JLINK_ReadMem (0x20001040, 0x0001 Bytes, ...) -- CPU_ReadMem(64 bytes @ 0x20001040) -- Updating C cache (64 bytes @ 0x20001040) -- Read from C cache (1 bytes @ 0x20001040) - Data: 00  returns 0x00 (0002ms, 0669ms total)
T3910 123:351 JLINK_ReadMem (0x20001041, 0x0001 Bytes, ...) -- Read from C cache (1 bytes @ 0x20001041) - Data: 00  returns 0x00 (0000ms, 0669ms total)
T3910 123:351 JLINK_ReadMem (0x20001042, 0x0001 Bytes, ...) -- Read from C cache (1 bytes @ 0x20001042) - Data: 00  returns 0x00 (0000ms, 0669ms total)
T3910 123:351 JLINK_ReadMem (0x20001043, 0x0001 Bytes, ...) -- Read from C cache (1 bytes @ 0x20001043) - Data: 00  returns 0x00 (0000ms, 0669ms total)
T3910 123:351 JLINK_ReadMem (0x20001044, 0x0001 Bytes, ...) -- Read from C cache (1 bytes @ 0x20001044) - Data: 00  returns 0x00 (0000ms, 0669ms total)
T3910 123:351 JLINK_ReadMem (0x20001045, 0x0001 Bytes, ...) -- Read from C cache (1 bytes @ 0x20001045) - Data: 00  returns 0x00 (0001ms, 0670ms total)
T3910 123:352 JLINK_ReadMem (0x20001046, 0x0001 Bytes, ...) -- Read from C cache (1 bytes @ 0x20001046) - Data: 00  returns 0x00 (0000ms, 0670ms total)
T3910 123:352 JLINK_ReadMem (0x20001047, 0x0001 Bytes, ...) -- Read from C cache (1 bytes @ 0x20001047) - Data: 00  returns 0x00 (0000ms, 0670ms total)
T3910 123:352 JLINK_ReadMem (0x20001048, 0x0001 Bytes, ...) -- Read from C cache (1 bytes @ 0x20001048) - Data: 00  returns 0x00 (0000ms, 0670ms total)
T3910 123:352 JLINK_ReadMem (0x20001049, 0x0001 Bytes, ...) -- Read from C cache (1 bytes @ 0x20001049) - Data: 00  returns 0x00 (0000ms, 0670ms total)
T3910 123:352 JLINK_ReadMem (0x2000104A, 0x0001 Bytes, ...) -- Read from C cache (1 bytes @ 0x2000104A) - Data: 00  returns 0x00 (0000ms, 0670ms total)
T3910 123:353 JLINK_ReadMem (0x2000104B, 0x0001 Bytes, ...) -- Read from C cache (1 bytes @ 0x2000104B) - Data: 00  returns 0x00 (0000ms, 0670ms total)
T3910 123:353 JLINK_ReadMem (0x2000104C, 0x0001 Bytes, ...) -- Read from C cache (1 bytes @ 0x2000104C) - Data: 00  returns 0x00 (0000ms, 0670ms total)
T3910 123:353 JLINK_ReadMem (0x2000104D, 0x0001 Bytes, ...) -- Read from C cache (1 bytes @ 0x2000104D) - Data: 00  returns 0x00 (0000ms, 0670ms total)
T3910 123:353 JLINK_ReadMem (0x2000104E, 0x0001 Bytes, ...) -- Read from C cache (1 bytes @ 0x2000104E) - Data: 00  returns 0x00 (0000ms, 0670ms total)
T3910 123:353 JLINK_ReadMem (0x2000104F, 0x0001 Bytes, ...) -- Read from C cache (1 bytes @ 0x2000104F) - Data: 00  returns 0x00 (0000ms, 0670ms total)
T3910 123:353 JLINK_ReadMem (0x20001050, 0x0001 Bytes, ...) -- Read from C cache (1 bytes @ 0x20001050) - Data: 00  returns 0x00 (0001ms, 0671ms total)
T3910 123:354 JLINK_ReadMem (0x20001051, 0x0001 Bytes, ...) -- Read from C cache (1 bytes @ 0x20001051) - Data: 00  returns 0x00 (0000ms, 0671ms total)
T3910 123:354 JLINK_ReadMem (0x20001052, 0x0001 Bytes, ...) -- Read from C cache (1 bytes @ 0x20001052) - Data: 00  returns 0x00 (0000ms, 0671ms total)
T3910 123:354 JLINK_ReadMem (0x20001053, 0x0001 Bytes, ...) -- Read from C cache (1 bytes @ 0x20001053) - Data: 00  returns 0x00 (0000ms, 0671ms total)
T3910 123:354 JLINK_ReadMem (0x20001054, 0x0001 Bytes, ...) -- Read from C cache (1 bytes @ 0x20001054) - Data: 00  returns 0x00 (0000ms, 0671ms total)
T3910 123:354 JLINK_ReadMem (0x20001055, 0x0001 Bytes, ...) -- Read from C cache (1 bytes @ 0x20001055) - Data: 00  returns 0x00 (0000ms, 0671ms total)
T3910 123:354 JLINK_ReadMem (0x20001056, 0x0001 Bytes, ...) -- Read from C cache (1 bytes @ 0x20001056) - Data: 00  returns 0x00 (0001ms, 0672ms total)
T3910 123:355 JLINK_ReadMem (0x20001057, 0x0001 Bytes, ...) -- Read from C cache (1 bytes @ 0x20001057) - Data: 00  returns 0x00 (0000ms, 0672ms total)
T3910 123:355 JLINK_ReadMem (0x20001058, 0x0001 Bytes, ...) -- Read from C cache (1 bytes @ 0x20001058) - Data: 00  returns 0x00 (0000ms, 0672ms total)
T3910 123:355 JLINK_ReadMem (0x20001059, 0x0001 Bytes, ...) -- Read from C cache (1 bytes @ 0x20001059) - Data: 00  returns 0x00 (0000ms, 0672ms total)
T3910 123:355 JLINK_ReadMem (0x2000105A, 0x0001 Bytes, ...) -- Read from C cache (1 bytes @ 0x2000105A) - Data: 00  returns 0x00 (0000ms, 0672ms total)
T3910 123:355 JLINK_ReadMem (0x2000105B, 0x0001 Bytes, ...) -- Read from C cache (1 bytes @ 0x2000105B) - Data: 00  returns 0x00 (0001ms, 0673ms total)
T3910 123:356 JLINK_ReadMem (0x2000105C, 0x0001 Bytes, ...) -- Read from C cache (1 bytes @ 0x2000105C) - Data: 00  returns 0x00 (0000ms, 0673ms total)
T3910 123:356 JLINK_ReadMem (0x2000105D, 0x0001 Bytes, ...) -- Read from C cache (1 bytes @ 0x2000105D) - Data: 00  returns 0x00 (0000ms, 0673ms total)
T3910 123:356 JLINK_ReadMem (0x2000105E, 0x0001 Bytes, ...) -- Read from C cache (1 bytes @ 0x2000105E) - Data: 00  returns 0x00 (0000ms, 0673ms total)
T3910 123:356 JLINK_ReadMem (0x2000105F, 0x0001 Bytes, ...) -- Read from C cache (1 bytes @ 0x2000105F) - Data: 00  returns 0x00 (0000ms, 0673ms total)
T3910 123:356 JLINK_ReadMem (0x20001060, 0x0001 Bytes, ...) -- Read from C cache (1 bytes @ 0x20001060) - Data: 00  returns 0x00 (0000ms, 0673ms total)
T3910 123:356 JLINK_ReadMem (0x20001061, 0x0001 Bytes, ...) -- Read from C cache (1 bytes @ 0x20001061) - Data: 00  returns 0x00 (0001ms, 0674ms total)
T3910 123:357 JLINK_ReadMem (0x20001062, 0x0001 Bytes, ...) -- Read from C cache (1 bytes @ 0x20001062) - Data: 00  returns 0x00 (0000ms, 0674ms total)
T3910 123:357 JLINK_ReadMem (0x20001063, 0x0001 Bytes, ...) -- Read from C cache (1 bytes @ 0x20001063) - Data: 00  returns 0x00 (0000ms, 0674ms total)
T2BD8 136:111 JLINK_SetBPEx(Addr = 0x0800626E, Type = 0xFFFFFFF2)  returns 0x00000002 (0000ms, 0674ms total)
T2BD8 136:111 JLINK_Go() -- CPU_WriteMem(4 bytes @ 0xE0002000) -- CPU_WriteMem(4 bytes @ 0xE0002008) (0002ms, 0676ms total)
T2BD8 136:214 JLINK_IsHalted()  returns TRUE (0004ms, 0680ms total)
T2BD8 136:218 JLINK_Halt()  returns 0x00 (0000ms, 0676ms total)
T2BD8 136:218 JLINK_IsHalted()  returns TRUE (0000ms, 0676ms total)
T2BD8 136:218 JLINK_IsHalted()  returns TRUE (0000ms, 0676ms total)
T2BD8 136:218 JLINK_IsHalted()  returns TRUE (0000ms, 0676ms total)
T2BD8 136:218 JLINK_ReadReg(R15 (PC))  returns 0x0800626E (0000ms, 0676ms total)
T2BD8 136:218 JLINK_ReadReg(XPSR)  returns 0x21000035 (0000ms, 0676ms total)
T2BD8 136:218 JLINK_ClrBPEx(BPHandle = 0x00000002)  returns 0x00 (0000ms, 0676ms total)
T2BD8 136:218 JLINK_ReadMemU32(0xE000ED30, 0x0001 Items, ...) -- CPU_ReadMem(4 bytes @ 0xE000ED30) - Data: 03 00 00 00  returns 0x01 (0001ms, 0677ms total)
T2BD8 136:219 JLINK_ReadMemU32(0xE0001028, 0x0001 Items, ...) -- CPU_ReadMem(4 bytes @ 0xE0001028) - Data: 00 00 00 00  returns 0x01 (0001ms, 0678ms total)
T2BD8 136:220 JLINK_ReadMemU32(0xE0001038, 0x0001 Items, ...) -- CPU_ReadMem(4 bytes @ 0xE0001038) - Data: 00 02 00 00  returns 0x01 (0001ms, 0679ms total)
T2BD8 136:221 JLINK_ReadMemU32(0xE0001048, 0x0001 Items, ...) -- CPU_ReadMem(4 bytes @ 0xE0001048) - Data: 00 00 00 00  returns 0x01 (0001ms, 0680ms total)
T2BD8 136:222 JLINK_ReadMemU32(0xE0001058, 0x0001 Items, ...) -- CPU_ReadMem(4 bytes @ 0xE0001058) - Data: 00 00 00 00  returns 0x01 (0001ms, 0681ms total)
T2BD8 136:223 JLINK_ReadReg(R0)  returns 0x200002B0 (0000ms, 0681ms total)
T2BD8 136:223 JLINK_ReadReg(R1)  returns 0x00000012 (0000ms, 0681ms total)
T2BD8 136:223 JLINK_ReadReg(R2)  returns 0x080D0501 (0000ms, 0681ms total)
T2BD8 136:223 JLINK_ReadReg(R3)  returns 0x00000010 (0000ms, 0681ms total)
T2BD8 136:223 JLINK_ReadReg(R4)  returns 0x200002B0 (0000ms, 0681ms total)
T2BD8 136:223 JLINK_ReadReg(R5)  returns 0x00000012 (0001ms, 0682ms total)
T2BD8 136:224 JLINK_ReadReg(R6)  returns 0x00000000 (0000ms, 0682ms total)
T2BD8 136:224 JLINK_ReadReg(R7)  returns 0x00000000 (0000ms, 0682ms total)
T2BD8 136:224 JLINK_ReadReg(R8)  returns 0x00000000 (0000ms, 0682ms total)
T2BD8 136:224 JLINK_ReadReg(R9)  returns 0x00000000 (0000ms, 0682ms total)
T2BD8 136:224 JLINK_ReadReg(R10)  returns 0x00000000 (0000ms, 0682ms total)
T2BD8 136:224 JLINK_ReadReg(R11)  returns 0x00000000 (0000ms, 0682ms total)
T2BD8 136:224 JLINK_ReadReg(R12)  returns 0x00000168 (0000ms, 0682ms total)
T2BD8 136:224 JLINK_ReadReg(R13 (SP))  returns 0x20001718 (0000ms, 0682ms total)
T2BD8 136:224 JLINK_ReadReg(R14)  returns 0x08006ABF (0001ms, 0683ms total)
T2BD8 136:225 JLINK_ReadReg(R15 (PC))  returns 0x0800626E (0000ms, 0683ms total)
T2BD8 136:225 JLINK_ReadReg(XPSR)  returns 0x21000035 (0000ms, 0683ms total)
T2BD8 136:225 JLINK_ReadReg(MSP)  returns 0x20001718 (0000ms, 0683ms total)
T2BD8 136:225 JLINK_ReadReg(PSP)  returns 0x00000000 (0000ms, 0683ms total)
T2BD8 136:225 JLINK_ReadReg(CFBP)  returns 0x00000000 (0000ms, 0683ms total)
T2BD8 136:225 JLINK_ReadReg(FPSCR)  returns 0x00000000 (0006ms, 0689ms total)
T2BD8 136:231 JLINK_ReadReg(FPS0)  returns 0x00000000 (0000ms, 0689ms total)
T2BD8 136:231 JLINK_ReadReg(FPS1)  returns 0x00000000 (0000ms, 0689ms total)
T2BD8 136:231 JLINK_ReadReg(FPS2)  returns 0x00000000 (0000ms, 0689ms total)
T2BD8 136:231 JLINK_ReadReg(FPS3)  returns 0x00000000 (0000ms, 0689ms total)
T2BD8 136:231 JLINK_ReadReg(FPS4)  returns 0x00000000 (0000ms, 0689ms total)
T2BD8 136:231 JLINK_ReadReg(FPS5)  returns 0x00000000 (0000ms, 0689ms total)
T2BD8 136:232 JLINK_ReadReg(FPS6)  returns 0x00000000 (0000ms, 0690ms total)
T2BD8 136:232 JLINK_ReadReg(FPS7)  returns 0x00000000 (0000ms, 0690ms total)
T2BD8 136:232 JLINK_ReadReg(FPS8)  returns 0x00000000 (0000ms, 0690ms total)
T2BD8 136:232 JLINK_ReadReg(FPS9)  returns 0x00000000 (0000ms, 0690ms total)
T2BD8 136:232 JLINK_ReadReg(FPS10)  returns 0x00000000 (0000ms, 0690ms total)
T2BD8 136:232 JLINK_ReadReg(FPS11)  returns 0x00000000 (0000ms, 0690ms total)
T2BD8 136:232 JLINK_ReadReg(FPS12)  returns 0x00000000 (0000ms, 0690ms total)
T2BD8 136:232 JLINK_ReadReg(FPS13)  returns 0x00000000 (0000ms, 0690ms total)
T2BD8 136:232 JLINK_ReadReg(FPS14)  returns 0x00000000 (0001ms, 0691ms total)
T2BD8 136:233 JLINK_ReadReg(FPS15)  returns 0x00000000 (0000ms, 0691ms total)
T2BD8 136:233 JLINK_ReadReg(FPS16)  returns 0x00000000 (0000ms, 0691ms total)
T2BD8 136:233 JLINK_ReadReg(FPS17)  returns 0x00000000 (0000ms, 0691ms total)
T2BD8 136:233 JLINK_ReadReg(FPS18)  returns 0x00000000 (0000ms, 0691ms total)
T2BD8 136:233 JLINK_ReadReg(FPS19)  returns 0x00000000 (0000ms, 0691ms total)
T2BD8 136:233 JLINK_ReadReg(FPS20)  returns 0x00000000 (0000ms, 0691ms total)
T2BD8 136:233 JLINK_ReadReg(FPS21)  returns 0x00000000 (0000ms, 0691ms total)
T2BD8 136:233 JLINK_ReadReg(FPS22)  returns 0x00000000 (0000ms, 0691ms total)
T2BD8 136:233 JLINK_ReadReg(FPS23)  returns 0x00000000 (0001ms, 0692ms total)
T2BD8 136:234 JLINK_ReadReg(FPS24)  returns 0x00000000 (0000ms, 0692ms total)
T2BD8 136:234 JLINK_ReadReg(FPS25)  returns 0x00000000 (0000ms, 0692ms total)
T2BD8 136:234 JLINK_ReadReg(FPS26)  returns 0x00000000 (0000ms, 0692ms total)
T2BD8 136:234 JLINK_ReadReg(FPS27)  returns 0x00000000 (0000ms, 0692ms total)
T2BD8 136:234 JLINK_ReadReg(FPS28)  returns 0x00000000 (0000ms, 0692ms total)
T2BD8 136:234 JLINK_ReadReg(FPS29)  returns 0x00000000 (0000ms, 0692ms total)
T2BD8 136:234 JLINK_ReadReg(FPS30)  returns 0x00000000 (0000ms, 0692ms total)
T2BD8 136:234 JLINK_ReadReg(FPS31)  returns 0x00000000 (0001ms, 0693ms total)
T3910 136:236 JLINK_ReadMem (0x20001724, 0x0004 Bytes, ...) -- CPU_ReadMem(64 bytes @ 0x20001700) -- Updating C cache (64 bytes @ 0x20001700) -- Read from C cache (4 bytes @ 0x20001724) - Data: BF 6A 00 08  returns 0x00 (0001ms, 0694ms total)
T3910 136:237 JLINK_ReadMem (0x20001718, 0x0004 Bytes, ...) -- Read from C cache (4 bytes @ 0x20001718) - Data: 00 00 00 00  returns 0x00 (0001ms, 0695ms total)
T3910 136:238 JLINK_ReadMem (0x2000171C, 0x0004 Bytes, ...) -- Read from C cache (4 bytes @ 0x2000171C) - Data: 10 A2 00 08  returns 0x00 (0000ms, 0695ms total)
T3910 136:238 JLINK_ReadMem (0x20001720, 0x0004 Bytes, ...) -- Read from C cache (4 bytes @ 0x20001720) - Data: 00 00 00 00  returns 0x00 (0000ms, 0695ms total)
T3910 136:238 JLINK_ReadMem (0x2000172C, 0x0004 Bytes, ...) -- Read from C cache (4 bytes @ 0x2000172C) - Data: F9 FF FF FF  returns 0x00 (0000ms, 0695ms total)
T3910 136:238 JLINK_ReadMem (0x20001748, 0x0004 Bytes, ...) -- CPU_ReadMem(64 bytes @ 0x20001740) -- Updating C cache (64 bytes @ 0x20001740) -- Read from C cache (4 bytes @ 0x20001748) - Data: 42 3B 00 08  returns 0x00 (0002ms, 0697ms total)
T3910 136:240 JLINK_ReadMem (0x2000174C, 0x0004 Bytes, ...) -- Read from C cache (4 bytes @ 0x2000174C) - Data: 00 02 00 81  returns 0x00 (0000ms, 0697ms total)
T3910 136:240 JLINK_ReadMem (0x20001744, 0x0004 Bytes, ...) -- Read from C cache (4 bytes @ 0x20001744) - Data: 2D 3B 00 08  returns 0x00 (0000ms, 0697ms total)
T3910 136:240 JLINK_ReadMem (0xE000ED28, 0x0004 Bytes, ...) -- CPU_ReadMem(4 bytes @ 0xE000ED28) - Data: 00 00 00 00  returns 0x00 (0001ms, 0698ms total)
T3910 136:243 JLINK_ReadMem (0x200002B0, 0x0020 Bytes, ...) -- CPU_ReadMem(128 bytes @ 0x20000280) -- Updating C cache (128 bytes @ 0x20000280) -- Read from C cache (32 bytes @ 0x200002B0) - Data: 00 04 60 FE 00 B8 00 00 00 00 00 00 00 00 00 00 ...  returns 0x00 (0002ms, 0700ms total)
T3910 136:283 JLINK_ReadMem (0x0800626E, 0x0002 Bytes, ...) -- CPU_ReadMem(64 bytes @ 0x08006240) -- Updating C cache (64 bytes @ 0x08006240) -- Read from C cache (2 bytes @ 0x0800626E) - Data: 20 78  returns 0x00 (0002ms, 0702ms total)
T3910 136:285 JLINK_ReadMem (0x08006270, 0x003C Bytes, ...) -- CPU_ReadMem(64 bytes @ 0x08006280) -- Updating C cache (64 bytes @ 0x08006280) -- Read from C cache (60 bytes @ 0x08006270) - Data: 61 78 40 EA 01 20 C0 F3 0A 00 26 49 08 80 60 78 ...  returns 0x00 (0002ms, 0704ms total)
T3910 137:999 JLINK_ReadMem (0x20000F16, 0x0002 Bytes, ...) -- CPU_ReadMem(64 bytes @ 0x20000F00) -- Updating C cache (64 bytes @ 0x20000F00) -- Read from C cache (2 bytes @ 0x20000F16) - Data: 00 00  returns 0x00 (0002ms, 0706ms total)
T2BD8 139:997 JLINK_Step() -- Read from C cache (2 bytes @ 0x0800626E) -- CPU_ReadMem(4 bytes @ 0xE0001004) -- Read from C cache (1 bytes @ 0x200002B0) -- Simulated  returns 0x00 (0001ms, 0707ms total)
T2BD8 139:998 JLINK_ReadReg(R15 (PC))  returns 0x08006270 (0000ms, 0707ms total)
T2BD8 139:998 JLINK_ReadReg(XPSR)  returns 0x21000035 (0000ms, 0707ms total)
T2BD8 139:999 JLINK_Step() -- Read from C cache (2 bytes @ 0x08006270) -- Read from C cache (1 bytes @ 0x200002B1) -- Simulated  returns 0x00 (0000ms, 0707ms total)
T2BD8 139:999 JLINK_ReadReg(R15 (PC))  returns 0x08006272 (0000ms, 0707ms total)
T2BD8 139:999 JLINK_ReadReg(XPSR)  returns 0x21000035 (0000ms, 0707ms total)
T2BD8 139:999 JLINK_Step() -- Read from C cache (2 bytes @ 0x08006272) -- Read from C cache (2 bytes @ 0x08006274) -- Not simulated -- CPU_WriteMem(4 bytes @ 0xE0002008) -- CPU_WriteMem(4 bytes @ 0xE0001004)  returns 0x00 (0005ms, 0712ms total)
T2BD8 140:004 JLINK_ReadReg(R15 (PC))  returns 0x08006276 (0000ms, 0712ms total)
T2BD8 140:004 JLINK_ReadReg(XPSR)  returns 0x21000035 (0001ms, 0713ms total)
T2BD8 140:005 JLINK_Step() -- CPU_ReadMem(64 bytes @ 0x08006240) -- Updating C cache (64 bytes @ 0x08006240) -- Read from C cache (2 bytes @ 0x08006276) -- CPU_ReadMem(4 bytes @ 0xE0001004) -- Read from C cache (2 bytes @ 0x08006278) -- Not simulated  returns 0x00 (0005ms, 0718ms total)
T2BD8 140:010 JLINK_ReadReg(R15 (PC))  returns 0x0800627A (0000ms, 0718ms total)
T2BD8 140:010 JLINK_ReadReg(XPSR)  returns 0x21000035 (0000ms, 0718ms total)
T2BD8 140:010 JLINK_Step() -- CPU_ReadMem(64 bytes @ 0x08006240) -- Updating C cache (64 bytes @ 0x08006240) -- Read from C cache (2 bytes @ 0x0800627A) -- CPU_ReadMem(4 bytes @ 0xE0001004) -- CPU_ReadMem(64 bytes @ 0x08006300) -- Updating C cache (64 bytes @ 0x08006300) -- Read from C cache (4 bytes @ 0x08006314) -- Simulated  returns 0x00 (0003ms, 0721ms total)
T2BD8 140:013 JLINK_ReadReg(R15 (PC))  returns 0x0800627C (0000ms, 0721ms total)
T2BD8 140:013 JLINK_ReadReg(XPSR)  returns 0x21000035 (0000ms, 0721ms total)
T2BD8 140:013 JLINK_Step() -- Read from C cache (2 bytes @ 0x0800627C) -- CPU_WriteMem(2 bytes @ 0x20000F16) -- Simulated  returns 0x00 (0001ms, 0722ms total)
T2BD8 140:014 JLINK_ReadReg(R15 (PC))  returns 0x0800627E (0000ms, 0722ms total)
T2BD8 140:014 JLINK_ReadReg(XPSR)  returns 0x21000035 (0000ms, 0722ms total)
T2BD8 140:014 JLINK_ReadReg(R0)  returns 0x00000400 (0000ms, 0722ms total)
T2BD8 140:014 JLINK_ReadReg(R1)  returns 0x20000F16 (0000ms, 0722ms total)
T2BD8 140:014 JLINK_ReadReg(R2)  returns 0x080D0501 (0000ms, 0722ms total)
T2BD8 140:014 JLINK_ReadReg(R3)  returns 0x00000010 (0000ms, 0722ms total)
T2BD8 140:014 JLINK_ReadReg(R4)  returns 0x200002B0 (0000ms, 0722ms total)
T2BD8 140:014 JLINK_ReadReg(R5)  returns 0x00000012 (0000ms, 0722ms total)
T2BD8 140:014 JLINK_ReadReg(R6)  returns 0x00000000 (0000ms, 0722ms total)
T2BD8 140:014 JLINK_ReadReg(R7)  returns 0x00000000 (0000ms, 0722ms total)
T2BD8 140:014 JLINK_ReadReg(R8)  returns 0x00000000 (0001ms, 0723ms total)
T2BD8 140:015 JLINK_ReadReg(R9)  returns 0x00000000 (0000ms, 0723ms total)
T2BD8 140:015 JLINK_ReadReg(R10)  returns 0x00000000 (0000ms, 0723ms total)
T2BD8 140:015 JLINK_ReadReg(R11)  returns 0x00000000 (0000ms, 0723ms total)
T2BD8 140:015 JLINK_ReadReg(R12)  returns 0x00000168 (0000ms, 0723ms total)
T2BD8 140:015 JLINK_ReadReg(R13 (SP))  returns 0x20001718 (0000ms, 0723ms total)
T2BD8 140:015 JLINK_ReadReg(R14)  returns 0x08006ABF (0000ms, 0723ms total)
T2BD8 140:015 JLINK_ReadReg(R15 (PC))  returns 0x0800627E (0000ms, 0723ms total)
T2BD8 140:015 JLINK_ReadReg(XPSR)  returns 0x21000035 (0000ms, 0723ms total)
T2BD8 140:015 JLINK_ReadReg(MSP)  returns 0x20001718 (0000ms, 0723ms total)
T2BD8 140:015 JLINK_ReadReg(PSP)  returns 0x00000000 (0000ms, 0723ms total)
T2BD8 140:015 JLINK_ReadReg(CFBP)  returns 0x00000000 (0000ms, 0723ms total)
T2BD8 140:015 JLINK_ReadReg(FPSCR)  returns 0x00000000 (0005ms, 0728ms total)
T2BD8 140:020 JLINK_ReadReg(FPS0)  returns 0x00000000 (0000ms, 0728ms total)
T2BD8 140:020 JLINK_ReadReg(FPS1)  returns 0x00000000 (0000ms, 0728ms total)
T2BD8 140:020 JLINK_ReadReg(FPS2)  returns 0x00000000 (0000ms, 0728ms total)
T2BD8 140:020 JLINK_ReadReg(FPS3)  returns 0x00000000 (0000ms, 0728ms total)
T2BD8 140:020 JLINK_ReadReg(FPS4)  returns 0x00000000 (0000ms, 0728ms total)
T2BD8 140:020 JLINK_ReadReg(FPS5)  returns 0x00000000 (0000ms, 0728ms total)
T2BD8 140:020 JLINK_ReadReg(FPS6)  returns 0x00000000 (0000ms, 0728ms total)
T2BD8 140:020 JLINK_ReadReg(FPS7)  returns 0x00000000 (0001ms, 0729ms total)
T2BD8 140:021 JLINK_ReadReg(FPS8)  returns 0x00000000 (0000ms, 0729ms total)
T2BD8 140:021 JLINK_ReadReg(FPS9)  returns 0x00000000 (0000ms, 0729ms total)
T2BD8 140:021 JLINK_ReadReg(FPS10)  returns 0x00000000 (0000ms, 0729ms total)
T2BD8 140:021 JLINK_ReadReg(FPS11)  returns 0x00000000 (0000ms, 0729ms total)
T2BD8 140:021 JLINK_ReadReg(FPS12)  returns 0x00000000 (0000ms, 0729ms total)
T2BD8 140:021 JLINK_ReadReg(FPS13)  returns 0x00000000 (0000ms, 0729ms total)
T2BD8 140:021 JLINK_ReadReg(FPS14)  returns 0x00000000 (0000ms, 0729ms total)
T2BD8 140:021 JLINK_ReadReg(FPS15)  returns 0x00000000 (0000ms, 0729ms total)
T2BD8 140:021 JLINK_ReadReg(FPS16)  returns 0x00000000 (0000ms, 0729ms total)
T2BD8 140:021 JLINK_ReadReg(FPS17)  returns 0x00000000 (0000ms, 0729ms total)
T2BD8 140:021 JLINK_ReadReg(FPS18)  returns 0x00000000 (0000ms, 0729ms total)
T2BD8 140:021 JLINK_ReadReg(FPS19)  returns 0x00000000 (0000ms, 0729ms total)
T2BD8 140:021 JLINK_ReadReg(FPS20)  returns 0x00000000 (0000ms, 0729ms total)
T2BD8 140:021 JLINK_ReadReg(FPS21)  returns 0x00000000 (0000ms, 0729ms total)
T2BD8 140:021 JLINK_ReadReg(FPS22)  returns 0x00000000 (0000ms, 0729ms total)
T2BD8 140:021 JLINK_ReadReg(FPS23)  returns 0x00000000 (0000ms, 0729ms total)
T2BD8 140:021 JLINK_ReadReg(FPS24)  returns 0x00000000 (0000ms, 0729ms total)
T2BD8 140:021 JLINK_ReadReg(FPS25)  returns 0x00000000 (0001ms, 0730ms total)
T2BD8 140:022 JLINK_ReadReg(FPS26)  returns 0x00000000 (0000ms, 0730ms total)
T2BD8 140:022 JLINK_ReadReg(FPS27)  returns 0x00000000 (0000ms, 0730ms total)
T2BD8 140:022 JLINK_ReadReg(FPS28)  returns 0x00000000 (0000ms, 0730ms total)
T2BD8 140:022 JLINK_ReadReg(FPS29)  returns 0x00000000 (0000ms, 0730ms total)
T2BD8 140:022 JLINK_ReadReg(FPS30)  returns 0x00000000 (0000ms, 0730ms total)
T2BD8 140:022 JLINK_ReadReg(FPS31)  returns 0x00000000 (0000ms, 0730ms total)
T3910 140:022 JLINK_ReadMem (0x20001724, 0x0004 Bytes, ...) -- CPU_ReadMem(64 bytes @ 0x20001700) -- Updating C cache (64 bytes @ 0x20001700) -- Read from C cache (4 bytes @ 0x20001724) - Data: BF 6A 00 08  returns 0x00 (0001ms, 0731ms total)
T3910 140:023 JLINK_ReadMem (0x20001718, 0x0004 Bytes, ...) -- Read from C cache (4 bytes @ 0x20001718) - Data: 00 00 00 00  returns 0x00 (0000ms, 0731ms total)
T3910 140:023 JLINK_ReadMem (0x2000171C, 0x0004 Bytes, ...) -- Read from C cache (4 bytes @ 0x2000171C) - Data: 10 A2 00 08  returns 0x00 (0000ms, 0731ms total)
T3910 140:023 JLINK_ReadMem (0x20001720, 0x0004 Bytes, ...) -- Read from C cache (4 bytes @ 0x20001720) - Data: 00 00 00 00  returns 0x00 (0001ms, 0732ms total)
T3910 140:024 JLINK_ReadMem (0x2000172C, 0x0004 Bytes, ...) -- Read from C cache (4 bytes @ 0x2000172C) - Data: F9 FF FF FF  returns 0x00 (0000ms, 0732ms total)
T3910 140:024 JLINK_ReadMem (0x20001748, 0x0004 Bytes, ...) -- CPU_ReadMem(64 bytes @ 0x20001740) -- Updating C cache (64 bytes @ 0x20001740) -- Read from C cache (4 bytes @ 0x20001748) - Data: 42 3B 00 08  returns 0x00 (0001ms, 0733ms total)
T3910 140:025 JLINK_ReadMem (0x2000174C, 0x0004 Bytes, ...) -- Read from C cache (4 bytes @ 0x2000174C) - Data: 00 02 00 81  returns 0x00 (0000ms, 0733ms total)
T3910 140:025 JLINK_ReadMem (0x20001744, 0x0004 Bytes, ...) -- Read from C cache (4 bytes @ 0x20001744) - Data: 2D 3B 00 08  returns 0x00 (0000ms, 0733ms total)
T3910 140:025 JLINK_ReadMem (0xE000ED28, 0x0004 Bytes, ...) -- CPU_ReadMem(4 bytes @ 0xE000ED28) - Data: 00 00 00 00  returns 0x00 (0000ms, 0733ms total)
T3910 140:025 JLINK_ReadMem (0x200002B0, 0x0020 Bytes, ...) -- CPU_ReadMem(128 bytes @ 0x20000280) -- Updating C cache (128 bytes @ 0x20000280) -- Read from C cache (32 bytes @ 0x200002B0) - Data: 00 04 60 FE 00 B8 00 00 00 00 00 00 00 00 00 00 ...  returns 0x00 (0002ms, 0735ms total)
T3910 140:030 JLINK_ReadMem (0x0800627E, 0x0002 Bytes, ...) -- Read from C cache (2 bytes @ 0x0800627E) - Data: 60 78  returns 0x00 (0001ms, 0736ms total)
T3910 140:031 JLINK_ReadMem (0x08006280, 0x003C Bytes, ...) -- CPU_ReadMem(64 bytes @ 0x08006280) -- Updating C cache (64 bytes @ 0x08006280) -- Read from C cache (60 bytes @ 0x08006280) - Data: C0 10 A1 78 40 EA 41 10 C0 F3 0A 00 21 49 48 80 ...  returns 0x00 (0001ms, 0737ms total)
T2BD8 140:431 JLINK_Step() -- Read from C cache (2 bytes @ 0x0800627E) -- Read from C cache (1 bytes @ 0x200002B1) -- Simulated  returns 0x00 (0000ms, 0737ms total)
T2BD8 140:431 JLINK_ReadReg(R15 (PC))  returns 0x08006280 (0000ms, 0737ms total)
T2BD8 140:431 JLINK_ReadReg(XPSR)  returns 0x21000035 (0000ms, 0737ms total)
T2BD8 140:431 JLINK_Step() -- Read from C cache (2 bytes @ 0x08006280) -- Simulated  returns 0x00 (0000ms, 0737ms total)
T2BD8 140:431 JLINK_ReadReg(R15 (PC))  returns 0x08006282 (0000ms, 0737ms total)
T2BD8 140:431 JLINK_ReadReg(XPSR)  returns 0x61000035 (0000ms, 0737ms total)
T2BD8 140:431 JLINK_Step() -- Read from C cache (2 bytes @ 0x08006282) -- Read from C cache (1 bytes @ 0x200002B2) -- Simulated  returns 0x00 (0000ms, 0737ms total)
T2BD8 140:431 JLINK_ReadReg(R15 (PC))  returns 0x08006284 (0000ms, 0737ms total)
T2BD8 140:431 JLINK_ReadReg(XPSR)  returns 0x61000035 (0000ms, 0737ms total)
T2BD8 140:431 JLINK_Step() -- Read from C cache (2 bytes @ 0x08006284) -- Read from C cache (2 bytes @ 0x08006286) -- Not simulated -- CPU_WriteMem(4 bytes @ 0xE0001004)  returns 0x00 (0005ms, 0742ms total)
T2BD8 140:436 JLINK_ReadReg(R15 (PC))  returns 0x08006288 (0000ms, 0742ms total)
T2BD8 140:436 JLINK_ReadReg(XPSR)  returns 0x61000035 (0001ms, 0743ms total)
T2BD8 140:437 JLINK_Step() -- CPU_ReadMem(64 bytes @ 0x08006280) -- Updating C cache (64 bytes @ 0x08006280) -- Read from C cache (2 bytes @ 0x08006288) -- CPU_ReadMem(4 bytes @ 0xE0001004) -- Read from C cache (2 bytes @ 0x0800628A) -- Not simulated  returns 0x00 (0005ms, 0748ms total)
T2BD8 140:442 JLINK_ReadReg(R15 (PC))  returns 0x0800628C (0000ms, 0748ms total)
T2BD8 140:442 JLINK_ReadReg(XPSR)  returns 0x61000035 (0000ms, 0748ms total)
T2BD8 140:442 JLINK_Step() -- CPU_ReadMem(64 bytes @ 0x08006280) -- Updating C cache (64 bytes @ 0x08006280) -- Read from C cache (2 bytes @ 0x0800628C) -- CPU_ReadMem(4 bytes @ 0xE0001004) -- CPU_ReadMem(64 bytes @ 0x08006300) -- Updating C cache (64 bytes @ 0x08006300) -- Read from C cache (4 bytes @ 0x08006314) -- Simulated  returns 0x00 (0003ms, 0751ms total)
T2BD8 140:445 JLINK_ReadReg(R15 (PC))  returns 0x0800628E (0000ms, 0751ms total)
T2BD8 140:445 JLINK_ReadReg(XPSR)  returns 0x61000035 (0000ms, 0751ms total)
T2BD8 140:445 JLINK_Step() -- Read from C cache (2 bytes @ 0x0800628E) -- CPU_WriteMem(2 bytes @ 0x20000F18) -- Simulated  returns 0x00 (0001ms, 0752ms total)
T2BD8 140:446 JLINK_ReadReg(R15 (PC))  returns 0x08006290 (0000ms, 0752ms total)
T2BD8 140:446 JLINK_ReadReg(XPSR)  returns 0x61000035 (0000ms, 0752ms total)
T2BD8 140:446 JLINK_ReadReg(R0)  returns 0x00000400 (0000ms, 0752ms total)
T2BD8 140:446 JLINK_ReadReg(R1)  returns 0x20000F16 (0000ms, 0752ms total)
T2BD8 140:446 JLINK_ReadReg(R2)  returns 0x080D0501 (0000ms, 0752ms total)
T2BD8 140:446 JLINK_ReadReg(R3)  returns 0x00000010 (0000ms, 0752ms total)
T2BD8 140:446 JLINK_ReadReg(R4)  returns 0x200002B0 (0000ms, 0752ms total)
T2BD8 140:446 JLINK_ReadReg(R5)  returns 0x00000012 (0000ms, 0752ms total)
T2BD8 140:446 JLINK_ReadReg(R6)  returns 0x00000000 (0000ms, 0752ms total)
T2BD8 140:446 JLINK_ReadReg(R7)  returns 0x00000000 (0000ms, 0752ms total)
T2BD8 140:446 JLINK_ReadReg(R8)  returns 0x00000000 (0000ms, 0752ms total)
T2BD8 140:446 JLINK_ReadReg(R9)  returns 0x00000000 (0000ms, 0752ms total)
T2BD8 140:446 JLINK_ReadReg(R10)  returns 0x00000000 (0000ms, 0752ms total)
T2BD8 140:446 JLINK_ReadReg(R11)  returns 0x00000000 (0000ms, 0752ms total)
